T2478 000:008.115   SEGGER J-Link V6.84a Log File
T2478 000:008.780   DLL Compiled: Sep  7 2020 17:26:08
T2478 000:008.791   Logging started @ 2021-04-13 03:13
T2478 000:008.801 - 8.806ms
T2478 000:008.938 JLINK_SetWarnOutHandler(...)
T2478 000:009.110 - 0.177ms
T2478 000:009.122 JLINK_OpenEx(...)
T2478 000:014.893   Firmware: J-Link V9 compiled Dec 13 2019 11:14:50
T2478 000:015.601   Decompressing FW timestamp took 450 us
T2478 000:022.385   Hardware: V9.60
T2478 000:022.448   S/N: 59602356
T2478 000:022.478   OEM: SEGGER
T2478 000:022.507   Feature(s): GDB, RDI, FlashBP, FlashDL, JFlash
T2478 000:024.171   TELNET listener socket opened on port 19021
T2478 000:024.581   WEBSRV Starting webserver
T2478 000:024.748   WEBSRV Webserver running on local port 19080
T2478 000:024.766 - 15.649ms returns "O.K."
T2478 000:024.790 JLINK_GetEmuCaps()
T2478 000:024.800 - 0.015ms returns 0xB9FF7BBF
T2478 000:024.994 JLINK_TIF_GetAvailable(...)
T2478 000:025.185 - 0.200ms
T2478 000:025.203 JLINK_SetErrorOutHandler(...)
T2478 000:025.213 - 0.015ms
T2478 000:025.415 JLINK_ExecCommand("ProjectFile = "C:\Users\wyatt\Desktop\embed\JE Projects\MOSFET_BYD\anti-rtos-mosfer_2021_0413 v0.20\JLinkSettings.ini"", ...). 
T2478 000:045.169   Ref file found at: d:\Keil_v5\ARM\Segger\JLinkDevices.ref
T2478 000:045.486   XML referenced by ref file: C:\Program Files (x86)\SEGGER\JLink\JLinkDevices.xml
T2478 000:046.445   C:\Program Files (x86)\SEGGER\JLink\JLinkDevices.xml evaluated successfully.
T2478 000:126.563   Device "CORTEX-M0" selected.
T2478 000:126.990 - 101.585ms returns 0x00
T2478 000:130.736 JLINK_ExecCommand("Device = TLE9854QX", ...). 
T2478 000:136.029   Device "TLE9854QX" selected.
T2478 000:136.423 - 5.663ms returns 0x00
T2478 000:136.448 JLINK_GetHardwareVersion()
T2478 000:136.459 - 0.016ms returns 96000
T2478 000:136.485 JLINK_GetDLLVersion()
T2478 000:136.494 - 0.014ms returns 68401
T2478 000:136.505 JLINK_GetOEMString(...)
T2478 000:136.516 JLINK_GetFirmwareString(...)
T2478 000:136.526 - 0.014ms
T2478 000:147.749 JLINK_GetDLLVersion()
T2478 000:147.786 - 0.042ms returns 68401
T2478 000:147.798 JLINK_GetCompileDateTime()
T2478 000:147.807 - 0.014ms
T2478 000:150.326 JLINK_GetFirmwareString(...)
T2478 000:150.354 - 0.033ms
T2478 000:152.914 JLINK_GetHardwareVersion()
T2478 000:152.944 - 0.034ms returns 96000
T2478 000:155.388 JLINK_GetSN()
T2478 000:155.414 - 0.031ms returns 59602356
T2478 000:158.027 JLINK_GetOEMString(...)
T2478 000:163.381 JLINK_TIF_Select(JLINKARM_TIF_SWD)
T2478 000:164.305 - 0.967ms returns 0x00
T2478 000:164.382 JLINK_HasError()
T2478 000:164.708 JLINK_SetSpeed(5000)
T2478 000:164.841 - 0.142ms
T2478 000:164.858 JLINK_GetId()
T2478 000:169.240   InitTarget() start
T2478 000:169.269    J-Link Script File: Executing InitTarget()
T2478 000:327.952   InitTarget() end
T2478 000:331.746   Found SW-DP with ID 0x0BB11477
T2478 000:333.570   Old FW that does not support reading DPIDR via DAP jobs
T2478 000:337.145   Unknown DP version. Assuming DPv0
T2478 000:340.767   Scanning AP map to find all available APs
T2478 000:345.665   AP[1]: Stopped AP scan as end of AP map has been reached
T2478 000:348.393   AP[0]: AHB-AP (IDR: 0x04770021)
T2478 000:350.685   Iterating through AP map to find AHB-AP to use
T2478 000:353.964   AP[0]: Core found
T2478 000:356.498   AP[0]: AHB-AP ROM base: 0xF0000000
T2478 000:359.972   CPUID register: 0x410CC200. Implementer code: 0x41 (ARM)
T2478 000:362.545   Found Cortex-M0 r0p0, Little endian.
T2478 000:463.724   -- Max. mem block: 0x00010BD0
T2478 000:463.828   CPU_ReadMem(4 bytes @ 0xE000EDF0)
T2478 000:464.315   CPU_WriteMem(4 bytes @ 0xE000EDF0)
T2478 000:464.611   CPU_ReadMem(4 bytes @ 0xE0002000)
T2478 000:469.183   FPUnit: 4 code (BP) slots and 0 literal slots
T2478 000:469.224   CPU_ReadMem(4 bytes @ 0xE000EDFC)
T2478 000:469.544   CPU_WriteMem(4 bytes @ 0xE000EDFC)
T2478 000:469.821   CPU_ReadMem(4 bytes @ 0xE0001000)
T2478 000:470.087   CPU_WriteMem(4 bytes @ 0xE0001000)
T2478 000:472.973   CoreSight components:
T2478 000:476.088   ROMTbl[0] @ F0000000
T2478 000:476.136   CPU_ReadMem(64 bytes @ 0xF0000000)
T2478 000:476.668   CPU_ReadMem(32 bytes @ 0xE00FFFE0)
T2478 000:480.741   ROMTbl[0][0]: E00FF000, CID: B105100D, PID: 000BB471 ROM Table
T2478 000:484.494   ROMTbl[1] @ E00FF000
T2478 000:484.561   CPU_ReadMem(64 bytes @ 0xE00FF000)
T2478 000:485.156   CPU_ReadMem(32 bytes @ 0xE000EFE0)
T2478 000:488.140   ROMTbl[1][0]: E000E000, CID: B105E00D, PID: 000BB008 SCS
T2478 000:488.175   CPU_ReadMem(32 bytes @ 0xE0002FE0)
T2478 000:491.280   ROMTbl[1][2]: E0002000, CID: B105E00D, PID: 000BB00B FPB
T2478 000:491.561 - 326.713ms returns 0x0BB11477
T2478 000:491.584 JLINK_GetDLLVersion()
T2478 000:491.595 - 0.014ms returns 68401
T2478 000:491.650 JLINK_CORE_GetFound()
T2478 000:491.666 - 0.021ms returns 0x60000FF
T2478 000:491.692 JLINK_GetDebugInfo(0x100 = JLINKARM_ROM_TABLE_ADDR_INDEX)
T2478 000:491.704   Value=0xF0000000
T2478 000:491.719 - 0.031ms returns 0
T2478 000:494.521 JLINK_GetDebugInfo(0x100 = JLINKARM_ROM_TABLE_ADDR_INDEX)
T2478 000:494.563   Value=0xF0000000
T2478 000:494.579 - 0.063ms returns 0
T2478 000:494.591 JLINK_GetDebugInfo(0x101 = JLINKARM_DEBUG_INFO_ETM_ADDR_INDEX)
T2478 000:494.603   Value=0x00000000
T2478 000:494.618 - 0.032ms returns 0
T2478 000:494.630 JLINK_ReadMemEx(0xE0041FF0, 0x10 Bytes, Flags = 0x02000004)
T2478 000:494.676   CPU_ReadMem(16 bytes @ 0xE0041FF0)
T2478 000:495.085   Data:  00 00 00 00 00 00 00 00 00 00 00 00 00 00 00 00
T2478 000:495.109 - 0.484ms returns 16 (0x10)
T2478 000:495.123 JLINK_GetDebugInfo(0x102 = JLINKARM_DEBUG_INFO_MTB_ADDR_INDEX)
T2478 000:495.133   Value=0x00000000
T2478 000:495.147 - 0.029ms returns 0
T2478 000:495.158 JLINK_GetDebugInfo(0x103 = JLINKARM_DEBUG_INFO_TPIU_ADDR_INDEX)
T2478 000:495.168   Value=0x00000000
T2478 000:495.183 - 0.029ms returns 0
T2478 000:495.193 JLINK_ReadMemEx(0xE0040FF0, 0x10 Bytes, Flags = 0x02000004)
T2478 000:495.208   CPU_ReadMem(16 bytes @ 0xE0040FF0)
T2478 000:495.592   Data:  00 00 00 00 00 00 00 00 00 00 00 00 00 00 00 00
T2478 000:495.613 - 0.424ms returns 16 (0x10)
T2478 000:495.625 JLINK_GetDebugInfo(0x104 = JLINKARM_DEBUG_INFO_ITM_ADDR_INDEX)
T2478 000:495.636   Value=0xE0000000
T2478 000:495.650 - 0.030ms returns 0
T2478 000:495.661 JLINK_GetDebugInfo(0x105 = JLINKARM_DEBUG_INFO_DWT_ADDR_INDEX)
T2478 000:495.673   Value=0xE0001000
T2478 000:495.689 - 0.032ms returns 0
T2478 000:495.700 JLINK_GetDebugInfo(0x106 = JLINKARM_DEBUG_INFO_FPB_ADDR_INDEX)
T2478 000:495.710   Value=0xE0002000
T2478 000:495.724 - 0.029ms returns 0
T2478 000:495.734 JLINK_GetDebugInfo(0x107 = JLINKARM_DEBUG_INFO_NVIC_ADDR_INDEX)
T2478 000:495.744   Value=0xE000E000
T2478 000:495.758 - 0.028ms returns 0
T2478 000:495.768 JLINK_GetDebugInfo(0x10C = JLINKARM_DEBUG_INFO_DBG_ADDR_INDEX)
T2478 000:495.778   Value=0xE000EDF0
T2478 000:495.792 - 0.028ms returns 0
T2478 000:495.802 JLINK_ReadMemU32(0xE000ED00, 0x1 Items)
T2478 000:495.816   CPU_ReadMem(4 bytes @ 0xE000ED00)
T2478 000:496.089   Data:  00 C2 0C 41
T2478 000:496.110   Debug reg: CPUID
T2478 000:496.124 - 0.326ms returns 1 (0x1)
T2478 000:496.136 JLINK_GetDebugInfo(0x10F = JLINKARM_DEBUG_INFO_HAS_CORTEX_M_SECURITY_EXT_INDEX)
T2478 000:496.146   Value=0x00000000
T2478 000:496.160 - 0.028ms returns 0
T2478 000:496.171 JLINK_HasError()
T2478 000:496.182 JLINK_SetResetType(JLINKARM_CM3_RESET_TYPE_NORMAL)
T2478 000:496.192 - 0.014ms returns JLINKARM_CM3_RESET_TYPE_NORMAL
T2478 000:496.202 JLINK_Reset()
T2478 000:498.991   ResetTarget() start
T2478 000:499.035    J-Link Script File: Executing ResetTarget()
T2478 000:501.503   CPU_ReadMem(64 bytes @ 0x11000000)
T2478 000:502.354    -- Updating C cache (64 bytes @ 0x11000000)
T2478 000:502.377    -- Read from C cache (4 bytes @ 0x11000004)
T2478 000:502.400   CPU_WriteMem(4 bytes @ 0xE0002000)
T2478 000:502.765   CPU_ReadMem(4 bytes @ 0xE0002008)
T2478 000:503.107   CPU_WriteMem(4 bytes @ 0xE0002008)
T2478 000:503.478   CPU_WriteMem(4 bytes @ 0xE000ED0C)
T2478 000:611.287   TLE98xx (reset): CPU did not halt automatically after reset. Manually halting CPU.
T2478 000:611.348   CPU_WriteMem(4 bytes @ 0xE0002008)
T2478 000:614.848   ResetTarget() end
T2478 000:616.815   CPU_WriteMem(4 bytes @ 0xE0002000)
T2478 000:617.177   CPU_ReadMem(4 bytes @ 0xE000EDFC)
T2478 000:617.569   CPU_ReadMem(4 bytes @ 0xE0001000)
T2478 000:617.981   CPU_WriteMem(4 bytes @ 0xE0001000)
T2478 000:618.325 - 122.133ms
T2478 000:618.351 JLINK_Halt()
T2478 000:618.362 - 0.015ms returns 0x00
T2478 000:618.374 JLINK_ReadMemU32(0xE000EDF0, 0x1 Items)
T2478 000:618.391   CPU_ReadMem(4 bytes @ 0xE000EDF0)
T2478 000:618.711   Data:  03 00 03 00
T2478 000:618.731   Debug reg: DHCSR
T2478 000:618.746 - 0.376ms returns 1 (0x1)
T2478 000:618.773 JLINK_WriteU32_64(0xE000EDF0, 0xA05F0003)
T2478 000:618.784   Debug reg: DHCSR
T2478 000:619.313   CPU_WriteMem(4 bytes @ 0xE000EDF0)
T2478 000:619.656 - 0.893ms returns 0 (0x00000000)
T2478 000:619.675 JLINK_WriteU32_64(0xE000EDFC, 0x01000000)
T2478 000:619.686   Debug reg: DEMCR
T2478 000:619.709   CPU_WriteMem(4 bytes @ 0xE000EDFC)
T2478 000:620.027 - 0.362ms returns 0 (0x00000000)
T2478 000:630.721 JLINK_GetHWStatus(...)
T2478 000:630.971 - 0.261ms returns 0
T2478 000:639.301 JLINK_GetNumBPUnits(Type = 0xFFFFFF00)
T2478 000:639.348 - 0.052ms returns 0x04
T2478 000:639.360 JLINK_GetNumBPUnits(Type = 0xF0)
T2478 000:639.371 - 0.016ms returns 0x2000
T2478 000:639.384 JLINK_GetNumWPUnits()
T2478 000:639.394 - 0.014ms returns 0
T2478 000:648.802 JLINK_GetSpeed()
T2478 000:648.842 - 0.045ms returns 4000
T2478 000:655.896 JLINK_ReadMemU32(0xE000E004, 0x1 Items)
T2478 000:655.955   CPU_ReadMem(4 bytes @ 0xE000E004)
T2478 000:656.252   Data:  00 00 00 00
T2478 000:656.274 - 0.383ms returns 1 (0x1)
T2478 000:656.290 JLINK_Halt()
T2478 000:656.300 - 0.015ms returns 0x00
T2478 000:656.311 JLINK_IsHalted()
T2478 000:656.322 - 0.015ms returns TRUE
T2478 000:660.327 JLINK_WriteMem(0x18000000, 0x1CC Bytes, ...)
T2478 000:660.375   Data:  00 BE 0A E0 0D 78 2D 06 68 40 08 24 40 00 00 D3 ...
T2478 000:660.916   CPU_WriteMem(460 bytes @ 0x18000000)
T2478 000:662.950 - 2.658ms returns 0x1CC
T2478 000:663.054 JLINK_HasError()
T2478 000:663.081 JLINK_WriteReg(R0, 0x10FFFFFC)
T2478 000:663.110 - 0.039ms returns 0
T2478 000:663.133 JLINK_WriteReg(R1, 0x00B71B00)
T2478 000:663.154 - 0.031ms returns 0
T2478 000:663.175 JLINK_WriteReg(R2, 0x00000001)
T2478 000:663.196 - 0.030ms returns 0
T2478 000:663.217 JLINK_WriteReg(R3, 0x00000000)
T2478 000:663.238 - 0.030ms returns 0
T2478 000:663.259 JLINK_WriteReg(R4, 0x00000000)
T2478 000:663.280 - 0.030ms returns 0
T2478 000:663.302 JLINK_WriteReg(R5, 0x00000000)
T2478 000:663.322 - 0.030ms returns 0
T2478 000:663.344 JLINK_WriteReg(R6, 0x00000000)
T2478 000:663.364 - 0.030ms returns 0
T2478 000:663.386 JLINK_WriteReg(R7, 0x00000000)
T2478 000:663.406 - 0.030ms returns 0
T2478 000:663.428 JLINK_WriteReg(R8, 0x00000000)
T2478 000:663.468 - 0.050ms returns 0
T2478 000:663.490 JLINK_WriteReg(R9, 0x180001A8)
T2478 000:663.510 - 0.030ms returns 0
T2478 000:663.532 JLINK_WriteReg(R10, 0x00000000)
T2478 000:663.552 - 0.030ms returns 0
T2478 000:663.573 JLINK_WriteReg(R11, 0x00000000)
T2478 000:663.593 - 0.030ms returns 0
T2478 000:663.615 JLINK_WriteReg(R12, 0x00000000)
T2478 000:663.635 - 0.030ms returns 0
T2478 000:663.657 JLINK_WriteReg(R13 (SP), 0x18001000)
T2478 000:663.679 - 0.032ms returns 0
T2478 000:663.701 JLINK_WriteReg(R14, 0x18000001)
T2478 000:663.722 - 0.030ms returns 0
T2478 000:663.743 JLINK_WriteReg(R15 (PC), 0x18000028)
T2478 000:663.763 - 0.030ms returns 0
T2478 000:663.785 JLINK_WriteReg(XPSR, 0x01000000)
T2478 000:663.805 - 0.030ms returns 0
T2478 000:663.827 JLINK_WriteReg(MSP, 0x18001000)
T2478 000:663.847 - 0.030ms returns 0
T2478 000:663.869 JLINK_WriteReg(PSP, 0x18001000)
T2478 000:663.889 - 0.030ms returns 0
T2478 000:663.911 JLINK_WriteReg(CFBP, 0x00000000)
T2478 000:663.931 - 0.030ms returns 0
T2478 000:663.953 JLINK_SetBPEx(Addr = 0x18000000, Type = 0xFFFFFFF2)
T2478 000:663.976 - 0.036ms returns 0x00000001
T2478 000:664.003 JLINK_Go()
T2478 000:664.040   CPU_WriteMem(4 bytes @ 0xE0002000)
T2478 000:664.382   CPU_ReadMem(4 bytes @ 0xE0001000)
T2478 000:664.717   CPU_WriteMem(4 bytes @ 0xE0001000)
T2478 000:664.761   CPU_WriteMem(4 bytes @ 0xE0002008)
T2478 000:664.783   CPU_WriteMem(4 bytes @ 0xE000200C)
T2478 000:664.799   CPU_WriteMem(4 bytes @ 0xE0002010)
T2478 000:664.815   CPU_WriteMem(4 bytes @ 0xE0002014)
T2478 000:665.646   CPU_WriteMem(4 bytes @ 0xE0001004)
T2478 000:667.644 - 3.651ms
T2478 000:667.663 JLINK_IsHalted()
T2478 000:669.452 - 1.817ms returns TRUE
T2478 000:669.492 JLINK_ReadReg(R15 (PC))
T2478 000:669.509 - 0.021ms returns 0x18000000
T2478 000:669.521 JLINK_ClrBPEx(BPHandle = 0x00000001)
T2478 000:669.532 - 0.016ms returns 0x00
T2478 000:669.545 JLINK_ReadReg(R0)
T2478 000:669.556 - 0.016ms returns 0x00000000
T2478 000:670.273 JLINK_HasError()
T2478 000:670.300 JLINK_WriteReg(R0, 0x10FFFFFC)
T2478 000:670.316 - 0.021ms returns 0
T2478 000:670.328 JLINK_WriteReg(R1, 0x00000004)
T2478 000:670.338 - 0.015ms returns 0
T2478 000:670.349 JLINK_WriteReg(R2, 0x000000FF)
T2478 000:670.359 - 0.015ms returns 0
T2478 000:670.370 JLINK_WriteReg(R3, 0x00000000)
T2478 000:670.380 - 0.015ms returns 0
T2478 000:670.391 JLINK_WriteReg(R4, 0x00000000)
T2478 000:670.401 - 0.015ms returns 0
T2478 000:670.412 JLINK_WriteReg(R5, 0x00000000)
T2478 000:670.422 - 0.015ms returns 0
T2478 000:670.433 JLINK_WriteReg(R6, 0x00000000)
T2478 000:670.443 - 0.015ms returns 0
T2478 000:670.454 JLINK_WriteReg(R7, 0x00000000)
T2478 000:670.464 - 0.015ms returns 0
T2478 000:670.475 JLINK_WriteReg(R8, 0x00000000)
T2478 000:670.485 - 0.015ms returns 0
T2478 000:670.496 JLINK_WriteReg(R9, 0x180001A8)
T2478 000:670.506 - 0.015ms returns 0
T2478 000:670.516 JLINK_WriteReg(R10, 0x00000000)
T2478 000:670.527 - 0.015ms returns 0
T2478 000:670.537 JLINK_WriteReg(R11, 0x00000000)
T2478 000:670.547 - 0.015ms returns 0
T2478 000:670.558 JLINK_WriteReg(R12, 0x00000000)
T2478 000:670.568 - 0.015ms returns 0
T2478 000:670.579 JLINK_WriteReg(R13 (SP), 0x18001000)
T2478 000:670.590 - 0.016ms returns 0
T2478 000:670.600 JLINK_WriteReg(R14, 0x18000001)
T2478 000:670.611 - 0.015ms returns 0
T2478 000:670.621 JLINK_WriteReg(R15 (PC), 0x180000AA)
T2478 000:670.632 - 0.015ms returns 0
T2478 000:670.642 JLINK_WriteReg(XPSR, 0x01000000)
T2478 000:670.653 - 0.015ms returns 0
T2478 000:670.663 JLINK_WriteReg(MSP, 0x18001000)
T2478 000:670.673 - 0.015ms returns 0
T2478 000:670.684 JLINK_WriteReg(PSP, 0x18001000)
T2478 000:670.694 - 0.015ms returns 0
T2478 000:670.704 JLINK_WriteReg(CFBP, 0x00000000)
T2478 000:670.715 - 0.015ms returns 0
T2478 000:670.725 JLINK_SetBPEx(Addr = 0x18000000, Type = 0xFFFFFFF2)
T2478 000:670.738 - 0.017ms returns 0x00000002
T2478 000:670.749 JLINK_Go()
T2478 000:670.765   CPU_WriteMem(4 bytes @ 0xE0002000)
T2478 000:671.060   CPU_ReadMem(4 bytes @ 0xE0001000)
T2478 000:671.324   CPU_WriteMem(4 bytes @ 0xE0001000)
T2478 000:673.336 - 2.612ms
T2478 000:673.372 JLINK_IsHalted()
T2478 000:675.154 - 1.811ms returns TRUE
T2478 000:675.193 JLINK_ReadReg(R15 (PC))
T2478 000:675.206 - 0.018ms returns 0x18000000
T2478 000:675.218 JLINK_ClrBPEx(BPHandle = 0x00000002)
T2478 000:675.228 - 0.015ms returns 0x00
T2478 000:675.239 JLINK_ReadReg(R0)
T2478 000:675.250 - 0.015ms returns 0x00000001
T2478 000:675.261 JLINK_HasError()
T2478 000:675.273 JLINK_WriteReg(R0, 0x10FFFFFC)
T2478 000:675.283 - 0.015ms returns 0
T2478 000:675.295 JLINK_WriteReg(R1, 0x00000004)
T2478 000:675.306 - 0.015ms returns 0
T2478 000:675.316 JLINK_WriteReg(R2, 0x000000FF)
T2478 000:675.327 - 0.015ms returns 0
T2478 000:675.337 JLINK_WriteReg(R3, 0x00000000)
T2478 000:675.347 - 0.014ms returns 0
T2478 000:675.358 JLINK_WriteReg(R4, 0x00000000)
T2478 000:675.368 - 0.015ms returns 0
T2478 000:675.378 JLINK_WriteReg(R5, 0x00000000)
T2478 000:675.388 - 0.014ms returns 0
T2478 000:675.398 JLINK_WriteReg(R6, 0x00000000)
T2478 000:675.408 - 0.014ms returns 0
T2478 000:675.419 JLINK_WriteReg(R7, 0x00000000)
T2478 000:675.486 - 0.071ms returns 0
T2478 000:675.496 JLINK_WriteReg(R8, 0x00000000)
T2478 000:675.507 - 0.015ms returns 0
T2478 000:675.517 JLINK_WriteReg(R9, 0x180001A8)
T2478 000:675.527 - 0.014ms returns 0
T2478 000:675.537 JLINK_WriteReg(R10, 0x00000000)
T2478 000:675.548 - 0.015ms returns 0
T2478 000:675.558 JLINK_WriteReg(R11, 0x00000000)
T2478 000:675.570 - 0.016ms returns 0
T2478 000:675.580 JLINK_WriteReg(R12, 0x00000000)
T2478 000:675.590 - 0.014ms returns 0
T2478 000:675.601 JLINK_WriteReg(R13 (SP), 0x18001000)
T2478 000:675.611 - 0.015ms returns 0
T2478 000:675.622 JLINK_WriteReg(R14, 0x18000001)
T2478 000:675.632 - 0.015ms returns 0
T2478 000:675.642 JLINK_WriteReg(R15 (PC), 0x1800006A)
T2478 000:675.652 - 0.014ms returns 0
T2478 000:675.663 JLINK_WriteReg(XPSR, 0x01000000)
T2478 000:675.673 - 0.015ms returns 0
T2478 000:675.684 JLINK_WriteReg(MSP, 0x18001000)
T2478 000:675.694 - 0.014ms returns 0
T2478 000:675.704 JLINK_WriteReg(PSP, 0x18001000)
T2478 000:675.714 - 0.015ms returns 0
T2478 000:675.725 JLINK_WriteReg(CFBP, 0x00000000)
T2478 000:675.735 - 0.014ms returns 0
T2478 000:675.745 JLINK_SetBPEx(Addr = 0x18000000, Type = 0xFFFFFFF2)
T2478 000:675.757 - 0.016ms returns 0x00000003
T2478 000:675.767 JLINK_Go()
T2478 000:675.783   CPU_WriteMem(4 bytes @ 0xE0002000)
T2478 000:676.070   CPU_ReadMem(4 bytes @ 0xE0001000)
T2478 000:676.341   CPU_WriteMem(4 bytes @ 0xE0001000)
T2478 000:678.367 - 2.629ms
T2478 000:678.407 JLINK_IsHalted()
T2478 000:678.632 - 0.244ms returns FALSE
T2478 000:678.662 JLINK_HasError()
T2478 000:697.035 JLINK_IsHalted()
T2478 000:698.970 - 1.947ms returns TRUE
T2478 000:698.990 JLINK_ReadReg(R15 (PC))
T2478 000:699.004 - 0.018ms returns 0x18000000
T2478 000:699.015 JLINK_ClrBPEx(BPHandle = 0x00000003)
T2478 000:699.028 - 0.022ms returns 0x00
T2478 000:699.044 JLINK_ReadReg(R0)
T2478 000:699.054 - 0.015ms returns 0x00000000
T2478 000:700.342 JLINK_HasError()
T2478 000:700.388 JLINK_WriteReg(R0, 0x00000001)
T2478 000:700.416 - 0.038ms returns 0
T2478 000:700.439 JLINK_WriteReg(R1, 0x00000004)
T2478 000:700.460 - 0.031ms returns 0
T2478 000:700.482 JLINK_WriteReg(R2, 0x000000FF)
T2478 000:700.503 - 0.030ms returns 0
T2478 000:700.524 JLINK_WriteReg(R3, 0x00000000)
T2478 000:700.545 - 0.030ms returns 0
T2478 000:700.566 JLINK_WriteReg(R4, 0x00000000)
T2478 000:700.587 - 0.030ms returns 0
T2478 000:700.608 JLINK_WriteReg(R5, 0x00000000)
T2478 000:700.628 - 0.030ms returns 0
T2478 000:700.650 JLINK_WriteReg(R6, 0x00000000)
T2478 000:700.670 - 0.030ms returns 0
T2478 000:700.691 JLINK_WriteReg(R7, 0x00000000)
T2478 000:700.712 - 0.030ms returns 0
T2478 000:700.733 JLINK_WriteReg(R8, 0x00000000)
T2478 000:700.753 - 0.029ms returns 0
T2478 000:700.774 JLINK_WriteReg(R9, 0x180001A8)
T2478 000:700.794 - 0.029ms returns 0
T2478 000:700.815 JLINK_WriteReg(R10, 0x00000000)
T2478 000:700.835 - 0.030ms returns 0
T2478 000:700.856 JLINK_WriteReg(R11, 0x00000000)
T2478 000:700.876 - 0.030ms returns 0
T2478 000:700.897 JLINK_WriteReg(R12, 0x00000000)
T2478 000:700.910 - 0.019ms returns 0
T2478 000:700.922 JLINK_WriteReg(R13 (SP), 0x18001000)
T2478 000:700.935 - 0.017ms returns 0
T2478 000:700.945 JLINK_WriteReg(R14, 0x18000001)
T2478 000:700.955 - 0.014ms returns 0
T2478 000:700.966 JLINK_WriteReg(R15 (PC), 0x18000044)
T2478 000:700.976 - 0.015ms returns 0
T2478 000:700.986 JLINK_WriteReg(XPSR, 0x01000000)
T2478 000:700.996 - 0.014ms returns 0
T2478 000:701.006 JLINK_WriteReg(MSP, 0x18001000)
T2478 000:701.016 - 0.015ms returns 0
T2478 000:701.028 JLINK_WriteReg(PSP, 0x18001000)
T2478 000:701.038 - 0.015ms returns 0
T2478 000:701.048 JLINK_WriteReg(CFBP, 0x00000000)
T2478 000:701.058 - 0.014ms returns 0
T2478 000:701.068 JLINK_SetBPEx(Addr = 0x18000000, Type = 0xFFFFFFF2)
T2478 000:701.080 - 0.016ms returns 0x00000004
T2478 000:701.091 JLINK_Go()
T2478 000:701.107   CPU_WriteMem(4 bytes @ 0xE0002000)
T2478 000:701.408   CPU_ReadMem(4 bytes @ 0xE0001000)
T2478 000:701.673   CPU_WriteMem(4 bytes @ 0xE0001000)
T2478 000:703.696 - 2.638ms
T2478 000:703.747 JLINK_IsHalted()
T2478 000:705.707 - 1.990ms returns TRUE
T2478 000:705.760 JLINK_ReadReg(R15 (PC))
T2478 000:705.793 - 0.047ms returns 0x18000000
T2478 000:705.823 JLINK_ClrBPEx(BPHandle = 0x00000004)
T2478 000:705.852 - 0.042ms returns 0x00
T2478 000:705.882 JLINK_ReadReg(R0)
T2478 000:705.910 - 0.042ms returns 0x00000000
T2478 000:707.957 JLINK_WriteMem(0x18000000, 0xEC Bytes, ...)
T2478 000:707.989   Data:  00 BE 0A E0 0D 78 2D 06 68 40 08 24 40 00 00 D3 ...
T2478 000:708.010   CPU_WriteMem(236 bytes @ 0x18000000)
T2478 000:709.214 - 1.268ms returns 0xEC
T2478 000:709.247 JLINK_HasError()
T2478 000:709.259 JLINK_WriteReg(R0, 0x11000000)
T2478 000:709.271 - 0.017ms returns 0
T2478 000:709.282 JLINK_WriteReg(R1, 0x00B71B00)
T2478 000:709.292 - 0.015ms returns 0
T2478 000:709.302 JLINK_WriteReg(R2, 0x00000001)
T2478 000:709.312 - 0.014ms returns 0
T2478 000:709.323 JLINK_WriteReg(R3, 0x00000000)
T2478 000:709.333 - 0.014ms returns 0
T2478 000:709.343 JLINK_WriteReg(R4, 0x00000000)
T2478 000:709.353 - 0.014ms returns 0
T2478 000:709.364 JLINK_WriteReg(R5, 0x00000000)
T2478 000:709.373 - 0.014ms returns 0
T2478 000:709.384 JLINK_WriteReg(R6, 0x00000000)
T2478 000:709.394 - 0.014ms returns 0
T2478 000:709.404 JLINK_WriteReg(R7, 0x00000000)
T2478 000:709.414 - 0.014ms returns 0
T2478 000:709.424 JLINK_WriteReg(R8, 0x00000000)
T2478 000:709.434 - 0.014ms returns 0
T2478 000:709.444 JLINK_WriteReg(R9, 0x180000C8)
T2478 000:709.454 - 0.014ms returns 0
T2478 000:709.464 JLINK_WriteReg(R10, 0x00000000)
T2478 000:709.474 - 0.014ms returns 0
T2478 000:709.485 JLINK_WriteReg(R11, 0x00000000)
T2478 000:709.495 - 0.014ms returns 0
T2478 000:709.505 JLINK_WriteReg(R12, 0x00000000)
T2478 000:709.515 - 0.014ms returns 0
T2478 000:709.525 JLINK_WriteReg(R13 (SP), 0x18001000)
T2478 000:709.535 - 0.015ms returns 0
T2478 000:709.546 JLINK_WriteReg(R14, 0x18000001)
T2478 000:709.556 - 0.014ms returns 0
T2478 000:709.566 JLINK_WriteReg(R15 (PC), 0x18000028)
T2478 000:709.576 - 0.014ms returns 0
T2478 000:709.586 JLINK_WriteReg(XPSR, 0x01000000)
T2478 000:709.596 - 0.014ms returns 0
T2478 000:709.607 JLINK_WriteReg(MSP, 0x18001000)
T2478 000:709.617 - 0.014ms returns 0
T2478 000:709.627 JLINK_WriteReg(PSP, 0x18001000)
T2478 000:709.637 - 0.014ms returns 0
T2478 000:709.647 JLINK_WriteReg(CFBP, 0x00000000)
T2478 000:709.657 - 0.014ms returns 0
T2478 000:709.667 JLINK_SetBPEx(Addr = 0x18000000, Type = 0xFFFFFFF2)
T2478 000:709.679 - 0.016ms returns 0x00000005
T2478 000:709.690 JLINK_Go()
T2478 000:709.705   CPU_WriteMem(4 bytes @ 0xE0002000)
T2478 000:710.021   CPU_ReadMem(4 bytes @ 0xE0001000)
T2478 000:710.346   CPU_WriteMem(4 bytes @ 0xE0001000)
T2478 000:712.378 - 2.698ms
T2478 000:712.396 JLINK_IsHalted()
T2478 000:714.234 - 1.880ms returns TRUE
T2478 000:714.300 JLINK_ReadReg(R15 (PC))
T2478 000:714.337 - 0.052ms returns 0x18000000
T2478 000:714.370 JLINK_ClrBPEx(BPHandle = 0x00000005)
T2478 000:714.399 - 0.042ms returns 0x00
T2478 000:714.429 JLINK_ReadReg(R0)
T2478 000:714.457 - 0.041ms returns 0x00000000
T2478 000:715.227 JLINK_HasError()
T2478 000:715.297 JLINK_WriteReg(R0, 0x11000000)
T2478 000:715.340 - 0.058ms returns 0
T2478 000:715.374 JLINK_WriteReg(R1, 0x00001000)
T2478 000:715.407 - 0.048ms returns 0
T2478 000:715.440 JLINK_WriteReg(R2, 0x000000FF)
T2478 000:715.472 - 0.047ms returns 0
T2478 000:715.505 JLINK_WriteReg(R3, 0x00000000)
T2478 000:715.537 - 0.047ms returns 0
T2478 000:715.570 JLINK_WriteReg(R4, 0x00000000)
T2478 000:715.602 - 0.047ms returns 0
T2478 000:715.635 JLINK_WriteReg(R5, 0x00000000)
T2478 000:715.667 - 0.047ms returns 0
T2478 000:715.700 JLINK_WriteReg(R6, 0x00000000)
T2478 000:715.732 - 0.046ms returns 0
T2478 000:715.765 JLINK_WriteReg(R7, 0x00000000)
T2478 000:715.796 - 0.047ms returns 0
T2478 000:715.830 JLINK_WriteReg(R8, 0x00000000)
T2478 000:715.862 - 0.047ms returns 0
T2478 000:715.895 JLINK_WriteReg(R9, 0x180000C8)
T2478 000:715.927 - 0.057ms returns 0
T2478 000:715.974 JLINK_WriteReg(R10, 0x00000000)
T2478 000:716.007 - 0.047ms returns 0
T2478 000:716.042 JLINK_WriteReg(R11, 0x00000000)
T2478 000:716.073 - 0.046ms returns 0
T2478 000:716.106 JLINK_WriteReg(R12, 0x00000000)
T2478 000:716.138 - 0.047ms returns 0
T2478 000:716.171 JLINK_WriteReg(R13 (SP), 0x18001000)
T2478 000:716.204 - 0.048ms returns 0
T2478 000:716.237 JLINK_WriteReg(R14, 0x18000001)
T2478 000:716.269 - 0.046ms returns 0
T2478 000:716.302 JLINK_WriteReg(R15 (PC), 0x180000A4)
T2478 000:716.333 - 0.047ms returns 0
T2478 000:716.366 JLINK_WriteReg(XPSR, 0x01000000)
T2478 000:716.398 - 0.047ms returns 0
T2478 000:716.431 JLINK_WriteReg(MSP, 0x18001000)
T2478 000:716.463 - 0.046ms returns 0
T2478 000:716.496 JLINK_WriteReg(PSP, 0x18001000)
T2478 000:716.528 - 0.046ms returns 0
T2478 000:716.561 JLINK_WriteReg(CFBP, 0x00000000)
T2478 000:716.592 - 0.046ms returns 0
T2478 000:716.625 JLINK_SetBPEx(Addr = 0x18000000, Type = 0xFFFFFFF2)
T2478 000:716.661 - 0.051ms returns 0x00000006
T2478 000:716.695 JLINK_Go()
T2478 000:716.738   CPU_WriteMem(4 bytes @ 0xE0002000)
T2478 000:717.076   CPU_ReadMem(4 bytes @ 0xE0001000)
T2478 000:717.351   CPU_WriteMem(4 bytes @ 0xE0001000)
T2478 000:719.427 - 2.742ms
T2478 000:719.446 JLINK_IsHalted()
T2478 000:721.320 - 1.919ms returns TRUE
T2478 000:721.392 JLINK_ReadReg(R15 (PC))
T2478 000:721.427 - 0.049ms returns 0x18000000
T2478 000:721.460 JLINK_ClrBPEx(BPHandle = 0x00000006)
T2478 000:721.489 - 0.043ms returns 0x00
T2478 000:721.522 JLINK_ReadReg(R0)
T2478 000:721.551 - 0.043ms returns 0x00000001
T2478 000:721.584 JLINK_HasError()
T2478 000:721.615 JLINK_WriteReg(R0, 0x11000000)
T2478 000:721.646 - 0.044ms returns 0
T2478 000:721.677 JLINK_WriteReg(R1, 0x00001000)
T2478 000:721.705 - 0.042ms returns 0
T2478 000:721.737 JLINK_WriteReg(R2, 0x000000FF)
T2478 000:721.765 - 0.042ms returns 0
T2478 000:721.797 JLINK_WriteReg(R3, 0x00000000)
T2478 000:721.825 - 0.042ms returns 0
T2478 000:721.858 JLINK_WriteReg(R4, 0x00000000)
T2478 000:721.886 - 0.042ms returns 0
T2478 000:721.917 JLINK_WriteReg(R5, 0x00000000)
T2478 000:721.946 - 0.042ms returns 0
T2478 000:721.979 JLINK_WriteReg(R6, 0x00000000)
T2478 000:722.000 - 0.027ms returns 0
T2478 000:722.013 JLINK_WriteReg(R7, 0x00000000)
T2478 000:722.023 - 0.016ms returns 0
T2478 000:722.036 JLINK_WriteReg(R8, 0x00000000)
T2478 000:722.046 - 0.015ms returns 0
T2478 000:722.057 JLINK_WriteReg(R9, 0x180000C8)
T2478 000:722.068 - 0.016ms returns 0
T2478 000:722.079 JLINK_WriteReg(R10, 0x00000000)
T2478 000:722.089 - 0.014ms returns 0
T2478 000:722.101 JLINK_WriteReg(R11, 0x00000000)
T2478 000:722.111 - 0.015ms returns 0
T2478 000:722.122 JLINK_WriteReg(R12, 0x00000000)
T2478 000:722.132 - 0.014ms returns 0
T2478 000:722.144 JLINK_WriteReg(R13 (SP), 0x18001000)
T2478 000:722.154 - 0.015ms returns 0
T2478 000:722.165 JLINK_WriteReg(R14, 0x18000001)
T2478 000:722.175 - 0.015ms returns 0
T2478 000:722.187 JLINK_WriteReg(R15 (PC), 0x18000082)
T2478 000:722.197 - 0.015ms returns 0
T2478 000:722.208 JLINK_WriteReg(XPSR, 0x01000000)
T2478 000:722.218 - 0.014ms returns 0
T2478 000:722.229 JLINK_WriteReg(MSP, 0x18001000)
T2478 000:722.239 - 0.015ms returns 0
T2478 000:722.250 JLINK_WriteReg(PSP, 0x18001000)
T2478 000:722.260 - 0.015ms returns 0
T2478 000:722.272 JLINK_WriteReg(CFBP, 0x00000000)
T2478 000:722.282 - 0.015ms returns 0
T2478 000:722.293 JLINK_SetBPEx(Addr = 0x18000000, Type = 0xFFFFFFF2)
T2478 000:722.304 - 0.016ms returns 0x00000007
T2478 000:722.316 JLINK_Go()
T2478 000:722.331   CPU_WriteMem(4 bytes @ 0xE0002000)
T2478 000:722.740   CPU_ReadMem(4 bytes @ 0xE0001000)
T2478 000:723.132   CPU_WriteMem(4 bytes @ 0xE0001000)
T2478 000:725.211 - 2.905ms
T2478 000:725.231 JLINK_IsHalted()
T2478 000:725.493 - 0.272ms returns FALSE
T2478 000:725.512 JLINK_HasError()
T2478 000:730.054 JLINK_IsHalted()
T2478 000:732.036 - 2.014ms returns TRUE
T2478 000:732.089 JLINK_ReadReg(R15 (PC))
T2478 000:732.123 - 0.047ms returns 0x18000000
T2478 000:732.159 JLINK_ClrBPEx(BPHandle = 0x00000007)
T2478 000:732.193 - 0.047ms returns 0x00
T2478 000:732.224 JLINK_ReadReg(R0)
T2478 000:732.252 - 0.042ms returns 0x00000000
T2478 000:733.498 JLINK_HasError()
T2478 000:733.550 JLINK_WriteReg(R0, 0x11001000)
T2478 000:733.587 - 0.051ms returns 0
T2478 000:733.619 JLINK_WriteReg(R1, 0x00001000)
T2478 000:733.648 - 0.042ms returns 0
T2478 000:733.678 JLINK_WriteReg(R2, 0x000000FF)
T2478 000:733.707 - 0.043ms returns 0
T2478 000:733.737 JLINK_WriteReg(R3, 0x00000000)
T2478 000:733.766 - 0.043ms returns 0
T2478 000:733.798 JLINK_WriteReg(R4, 0x00000000)
T2478 000:733.826 - 0.042ms returns 0
T2478 000:733.856 JLINK_WriteReg(R5, 0x00000000)
T2478 000:733.884 - 0.041ms returns 0
T2478 000:733.913 JLINK_WriteReg(R6, 0x00000000)
T2478 000:733.943 - 0.043ms returns 0
T2478 000:733.973 JLINK_WriteReg(R7, 0x00000000)
T2478 000:733.992 - 0.024ms returns 0
T2478 000:734.003 JLINK_WriteReg(R8, 0x00000000)
T2478 000:734.013 - 0.015ms returns 0
T2478 000:734.023 JLINK_WriteReg(R9, 0x180000C8)
T2478 000:734.035 - 0.016ms returns 0
T2478 000:734.046 JLINK_WriteReg(R10, 0x00000000)
T2478 000:734.056 - 0.015ms returns 0
T2478 000:734.066 JLINK_WriteReg(R11, 0x00000000)
T2478 000:734.076 - 0.015ms returns 0
T2478 000:734.087 JLINK_WriteReg(R12, 0x00000000)
T2478 000:734.097 - 0.015ms returns 0
T2478 000:734.108 JLINK_WriteReg(R13 (SP), 0x18001000)
T2478 000:734.118 - 0.015ms returns 0
T2478 000:734.128 JLINK_WriteReg(R14, 0x18000001)
T2478 000:734.138 - 0.015ms returns 0
T2478 000:734.149 JLINK_WriteReg(R15 (PC), 0x180000A4)
T2478 000:734.159 - 0.015ms returns 0
T2478 000:734.170 JLINK_WriteReg(XPSR, 0x01000000)
T2478 000:734.180 - 0.015ms returns 0
T2478 000:734.191 JLINK_WriteReg(MSP, 0x18001000)
T2478 000:734.200 - 0.014ms returns 0
T2478 000:734.211 JLINK_WriteReg(PSP, 0x18001000)
T2478 000:734.221 - 0.014ms returns 0
T2478 000:734.232 JLINK_WriteReg(CFBP, 0x00000000)
T2478 000:734.242 - 0.015ms returns 0
T2478 000:734.252 JLINK_SetBPEx(Addr = 0x18000000, Type = 0xFFFFFFF2)
T2478 000:734.264 - 0.016ms returns 0x00000008
T2478 000:734.275 JLINK_Go()
T2478 000:734.290   CPU_WriteMem(4 bytes @ 0xE0002000)
T2478 000:734.625   CPU_ReadMem(4 bytes @ 0xE0001000)
T2478 000:734.936   CPU_WriteMem(4 bytes @ 0xE0001000)
T2478 000:736.968 - 2.710ms
T2478 000:736.994 JLINK_IsHalted()
T2478 000:738.780 - 1.817ms returns TRUE
T2478 000:738.829 JLINK_ReadReg(R15 (PC))
T2478 000:738.855 - 0.036ms returns 0x18000000
T2478 000:738.877 JLINK_ClrBPEx(BPHandle = 0x00000008)
T2478 000:738.898 - 0.030ms returns 0x00
T2478 000:738.918 JLINK_ReadReg(R0)
T2478 000:738.928 - 0.016ms returns 0x00000001
T2478 000:738.941 JLINK_HasError()
T2478 000:738.954 JLINK_WriteReg(R0, 0x11001000)
T2478 000:738.965 - 0.015ms returns 0
T2478 000:738.975 JLINK_WriteReg(R1, 0x00001000)
T2478 000:738.985 - 0.014ms returns 0
T2478 000:738.995 JLINK_WriteReg(R2, 0x000000FF)
T2478 000:739.005 - 0.014ms returns 0
T2478 000:739.016 JLINK_WriteReg(R3, 0x00000000)
T2478 000:739.026 - 0.016ms returns 0
T2478 000:739.038 JLINK_WriteReg(R4, 0x00000000)
T2478 000:739.048 - 0.015ms returns 0
T2478 000:739.059 JLINK_WriteReg(R5, 0x00000000)
T2478 000:739.069 - 0.015ms returns 0
T2478 000:739.080 JLINK_WriteReg(R6, 0x00000000)
T2478 000:739.090 - 0.014ms returns 0
T2478 000:739.100 JLINK_WriteReg(R7, 0x00000000)
T2478 000:739.110 - 0.014ms returns 0
T2478 000:739.120 JLINK_WriteReg(R8, 0x00000000)
T2478 000:739.130 - 0.014ms returns 0
T2478 000:739.141 JLINK_WriteReg(R9, 0x180000C8)
T2478 000:739.151 - 0.014ms returns 0
T2478 000:739.161 JLINK_WriteReg(R10, 0x00000000)
T2478 000:739.171 - 0.014ms returns 0
T2478 000:739.181 JLINK_WriteReg(R11, 0x00000000)
T2478 000:739.191 - 0.015ms returns 0
T2478 000:739.202 JLINK_WriteReg(R12, 0x00000000)
T2478 000:739.212 - 0.014ms returns 0
T2478 000:739.222 JLINK_WriteReg(R13 (SP), 0x18001000)
T2478 000:739.232 - 0.015ms returns 0
T2478 000:739.242 JLINK_WriteReg(R14, 0x18000001)
T2478 000:739.252 - 0.014ms returns 0
T2478 000:739.312 JLINK_WriteReg(R15 (PC), 0x18000082)
T2478 000:739.326 - 0.018ms returns 0
T2478 000:739.336 JLINK_WriteReg(XPSR, 0x01000000)
T2478 000:739.346 - 0.014ms returns 0
T2478 000:739.357 JLINK_WriteReg(MSP, 0x18001000)
T2478 000:739.367 - 0.015ms returns 0
T2478 000:739.377 JLINK_WriteReg(PSP, 0x18001000)
T2478 000:739.387 - 0.014ms returns 0
T2478 000:739.398 JLINK_WriteReg(CFBP, 0x00000000)
T2478 000:739.408 - 0.014ms returns 0
T2478 000:739.418 JLINK_SetBPEx(Addr = 0x18000000, Type = 0xFFFFFFF2)
T2478 000:739.429 - 0.015ms returns 0x00000009
T2478 000:739.439 JLINK_Go()
T2478 000:739.454   CPU_WriteMem(4 bytes @ 0xE0002000)
T2478 000:739.758   CPU_ReadMem(4 bytes @ 0xE0001000)
T2478 000:740.055   CPU_WriteMem(4 bytes @ 0xE0001000)
T2478 000:742.226 - 2.797ms
T2478 000:742.244 JLINK_IsHalted()
T2478 000:742.479 - 0.244ms returns FALSE
T2478 000:742.497 JLINK_HasError()
T2478 000:748.281 JLINK_IsHalted()
T2478 000:750.247 - 1.996ms returns TRUE
T2478 000:750.305 JLINK_ReadReg(R15 (PC))
T2478 000:750.340 - 0.049ms returns 0x18000000
T2478 000:750.373 JLINK_ClrBPEx(BPHandle = 0x00000009)
T2478 000:750.403 - 0.043ms returns 0x00
T2478 000:750.435 JLINK_ReadReg(R0)
T2478 000:750.466 - 0.045ms returns 0x00000000
T2478 000:751.459 JLINK_HasError()
T2478 000:751.498 JLINK_WriteReg(R0, 0x11002000)
T2478 000:751.524 - 0.036ms returns 0
T2478 000:751.546 JLINK_WriteReg(R1, 0x00001000)
T2478 000:751.567 - 0.030ms returns 0
T2478 000:751.589 JLINK_WriteReg(R2, 0x000000FF)
T2478 000:751.609 - 0.030ms returns 0
T2478 000:751.630 JLINK_WriteReg(R3, 0x00000000)
T2478 000:751.650 - 0.030ms returns 0
T2478 000:751.671 JLINK_WriteReg(R4, 0x00000000)
T2478 000:751.692 - 0.030ms returns 0
T2478 000:751.713 JLINK_WriteReg(R5, 0x00000000)
T2478 000:751.733 - 0.030ms returns 0
T2478 000:751.755 JLINK_WriteReg(R6, 0x00000000)
T2478 000:751.775 - 0.030ms returns 0
T2478 000:751.796 JLINK_WriteReg(R7, 0x00000000)
T2478 000:751.817 - 0.030ms returns 0
T2478 000:751.838 JLINK_WriteReg(R8, 0x00000000)
T2478 000:751.858 - 0.029ms returns 0
T2478 000:751.879 JLINK_WriteReg(R9, 0x180000C8)
T2478 000:751.899 - 0.030ms returns 0
T2478 000:751.921 JLINK_WriteReg(R10, 0x00000000)
T2478 000:751.939 - 0.023ms returns 0
T2478 000:751.950 JLINK_WriteReg(R11, 0x00000000)
T2478 000:751.962 - 0.016ms returns 0
T2478 000:751.974 JLINK_WriteReg(R12, 0x00000000)
T2478 000:751.983 - 0.014ms returns 0
T2478 000:751.994 JLINK_WriteReg(R13 (SP), 0x18001000)
T2478 000:752.005 - 0.015ms returns 0
T2478 000:752.015 JLINK_WriteReg(R14, 0x18000001)
T2478 000:752.025 - 0.014ms returns 0
T2478 000:752.038 JLINK_WriteReg(R15 (PC), 0x180000A4)
T2478 000:752.048 - 0.015ms returns 0
T2478 000:752.058 JLINK_WriteReg(XPSR, 0x01000000)
T2478 000:752.068 - 0.014ms returns 0
T2478 000:752.079 JLINK_WriteReg(MSP, 0x18001000)
T2478 000:752.089 - 0.014ms returns 0
T2478 000:752.099 JLINK_WriteReg(PSP, 0x18001000)
T2478 000:752.109 - 0.014ms returns 0
T2478 000:752.119 JLINK_WriteReg(CFBP, 0x00000000)
T2478 000:752.129 - 0.014ms returns 0
T2478 000:752.140 JLINK_SetBPEx(Addr = 0x18000000, Type = 0xFFFFFFF2)
T2478 000:752.152 - 0.017ms returns 0x0000000A
T2478 000:752.163 JLINK_Go()
T2478 000:752.180   CPU_WriteMem(4 bytes @ 0xE0002000)
T2478 000:752.472   CPU_ReadMem(4 bytes @ 0xE0001000)
T2478 000:752.735   CPU_WriteMem(4 bytes @ 0xE0001000)
T2478 000:754.807 - 2.654ms
T2478 000:754.825 JLINK_IsHalted()
T2478 000:756.715 - 1.920ms returns TRUE
T2478 000:756.767 JLINK_ReadReg(R15 (PC))
T2478 000:756.800 - 0.047ms returns 0x18000000
T2478 000:756.831 JLINK_ClrBPEx(BPHandle = 0x0000000A)
T2478 000:756.860 - 0.042ms returns 0x00
T2478 000:756.890 JLINK_ReadReg(R0)
T2478 000:756.918 - 0.041ms returns 0x00000001
T2478 000:756.948 JLINK_HasError()
T2478 000:756.978 JLINK_WriteReg(R0, 0x11002000)
T2478 000:757.007 - 0.042ms returns 0
T2478 000:757.039 JLINK_WriteReg(R1, 0x00001000)
T2478 000:757.068 - 0.042ms returns 0
T2478 000:757.096 JLINK_WriteReg(R2, 0x000000FF)
T2478 000:757.112 - 0.024ms returns 0
T2478 000:757.128 JLINK_WriteReg(R3, 0x00000000)
T2478 000:757.138 - 0.014ms returns 0
T2478 000:757.149 JLINK_WriteReg(R4, 0x00000000)
T2478 000:757.159 - 0.014ms returns 0
T2478 000:757.169 JLINK_WriteReg(R5, 0x00000000)
T2478 000:757.179 - 0.014ms returns 0
T2478 000:757.189 JLINK_WriteReg(R6, 0x00000000)
T2478 000:757.199 - 0.014ms returns 0
T2478 000:757.209 JLINK_WriteReg(R7, 0x00000000)
T2478 000:757.219 - 0.014ms returns 0
T2478 000:757.230 JLINK_WriteReg(R8, 0x00000000)
T2478 000:757.240 - 0.014ms returns 0
T2478 000:757.250 JLINK_WriteReg(R9, 0x180000C8)
T2478 000:757.260 - 0.014ms returns 0
T2478 000:757.270 JLINK_WriteReg(R10, 0x00000000)
T2478 000:757.280 - 0.014ms returns 0
T2478 000:757.290 JLINK_WriteReg(R11, 0x00000000)
T2478 000:757.300 - 0.015ms returns 0
T2478 000:757.311 JLINK_WriteReg(R12, 0x00000000)
T2478 000:757.321 - 0.014ms returns 0
T2478 000:757.331 JLINK_WriteReg(R13 (SP), 0x18001000)
T2478 000:757.341 - 0.014ms returns 0
T2478 000:757.351 JLINK_WriteReg(R14, 0x18000001)
T2478 000:757.361 - 0.014ms returns 0
T2478 000:757.371 JLINK_WriteReg(R15 (PC), 0x18000082)
T2478 000:757.381 - 0.014ms returns 0
T2478 000:757.392 JLINK_WriteReg(XPSR, 0x01000000)
T2478 000:757.402 - 0.014ms returns 0
T2478 000:757.412 JLINK_WriteReg(MSP, 0x18001000)
T2478 000:757.422 - 0.014ms returns 0
T2478 000:757.432 JLINK_WriteReg(PSP, 0x18001000)
T2478 000:757.442 - 0.014ms returns 0
T2478 000:757.452 JLINK_WriteReg(CFBP, 0x00000000)
T2478 000:757.462 - 0.014ms returns 0
T2478 000:757.473 JLINK_SetBPEx(Addr = 0x18000000, Type = 0xFFFFFFF2)
T2478 000:757.483 - 0.015ms returns 0x0000000B
T2478 000:757.494 JLINK_Go()
T2478 000:757.505   CPU_WriteMem(4 bytes @ 0xE0002000)
T2478 000:757.776   CPU_ReadMem(4 bytes @ 0xE0001000)
T2478 000:758.046   CPU_WriteMem(4 bytes @ 0xE0001000)
T2478 000:760.320 - 2.856ms
T2478 000:760.360 JLINK_IsHalted()
T2478 000:760.605 - 0.255ms returns FALSE
T2478 000:760.624 JLINK_HasError()
T2478 000:766.057 JLINK_IsHalted()
T2478 000:767.986 - 1.960ms returns TRUE
T2478 000:768.035 JLINK_ReadReg(R15 (PC))
T2478 000:768.053 - 0.024ms returns 0x18000000
T2478 000:768.066 JLINK_ClrBPEx(BPHandle = 0x0000000B)
T2478 000:768.077 - 0.016ms returns 0x00
T2478 000:768.088 JLINK_ReadReg(R0)
T2478 000:768.098 - 0.015ms returns 0x00000000
T2478 000:768.598 JLINK_HasError()
T2478 000:768.617 JLINK_WriteReg(R0, 0x11003000)
T2478 000:768.630 - 0.017ms returns 0
T2478 000:768.641 JLINK_WriteReg(R1, 0x00001000)
T2478 000:768.651 - 0.015ms returns 0
T2478 000:768.661 JLINK_WriteReg(R2, 0x000000FF)
T2478 000:768.672 - 0.014ms returns 0
T2478 000:768.682 JLINK_WriteReg(R3, 0x00000000)
T2478 000:768.692 - 0.014ms returns 0
T2478 000:768.702 JLINK_WriteReg(R4, 0x00000000)
T2478 000:768.712 - 0.014ms returns 0
T2478 000:768.722 JLINK_WriteReg(R5, 0x00000000)
T2478 000:768.732 - 0.014ms returns 0
T2478 000:768.743 JLINK_WriteReg(R6, 0x00000000)
T2478 000:768.752 - 0.014ms returns 0
T2478 000:768.763 JLINK_WriteReg(R7, 0x00000000)
T2478 000:768.773 - 0.014ms returns 0
T2478 000:768.783 JLINK_WriteReg(R8, 0x00000000)
T2478 000:768.793 - 0.014ms returns 0
T2478 000:768.803 JLINK_WriteReg(R9, 0x180000C8)
T2478 000:768.813 - 0.014ms returns 0
T2478 000:768.823 JLINK_WriteReg(R10, 0x00000000)
T2478 000:768.833 - 0.014ms returns 0
T2478 000:768.843 JLINK_WriteReg(R11, 0x00000000)
T2478 000:768.853 - 0.014ms returns 0
T2478 000:768.864 JLINK_WriteReg(R12, 0x00000000)
T2478 000:768.874 - 0.014ms returns 0
T2478 000:768.884 JLINK_WriteReg(R13 (SP), 0x18001000)
T2478 000:768.895 - 0.015ms returns 0
T2478 000:768.905 JLINK_WriteReg(R14, 0x18000001)
T2478 000:768.915 - 0.014ms returns 0
T2478 000:768.925 JLINK_WriteReg(R15 (PC), 0x180000A4)
T2478 000:768.935 - 0.014ms returns 0
T2478 000:768.945 JLINK_WriteReg(XPSR, 0x01000000)
T2478 000:768.955 - 0.014ms returns 0
T2478 000:768.965 JLINK_WriteReg(MSP, 0x18001000)
T2478 000:768.975 - 0.014ms returns 0
T2478 000:768.985 JLINK_WriteReg(PSP, 0x18001000)
T2478 000:768.995 - 0.018ms returns 0
T2478 000:769.013 JLINK_WriteReg(CFBP, 0x00000000)
T2478 000:769.029 - 0.030ms returns 0
T2478 000:769.061 JLINK_SetBPEx(Addr = 0x18000000, Type = 0xFFFFFFF2)
T2478 000:769.094 - 0.045ms returns 0x0000000C
T2478 000:769.123 JLINK_Go()
T2478 000:769.161   CPU_WriteMem(4 bytes @ 0xE0002000)
T2478 000:769.536   CPU_ReadMem(4 bytes @ 0xE0001000)
T2478 000:769.959   CPU_WriteMem(4 bytes @ 0xE0001000)
T2478 000:772.041 - 2.928ms
T2478 000:772.061 JLINK_IsHalted()
T2478 000:774.089 - 2.064ms returns TRUE
T2478 000:774.135 JLINK_ReadReg(R15 (PC))
T2478 000:774.149 - 0.018ms returns 0x18000000
T2478 000:774.159 JLINK_ClrBPEx(BPHandle = 0x0000000C)
T2478 000:774.170 - 0.015ms returns 0x00
T2478 000:774.180 JLINK_ReadReg(R0)
T2478 000:774.191 - 0.015ms returns 0x00000001
T2478 000:774.202 JLINK_HasError()
T2478 000:774.213 JLINK_WriteReg(R0, 0x11003000)
T2478 000:774.223 - 0.015ms returns 0
T2478 000:774.234 JLINK_WriteReg(R1, 0x00001000)
T2478 000:774.244 - 0.014ms returns 0
T2478 000:774.254 JLINK_WriteReg(R2, 0x000000FF)
T2478 000:774.264 - 0.014ms returns 0
T2478 000:774.274 JLINK_WriteReg(R3, 0x00000000)
T2478 000:774.285 - 0.015ms returns 0
T2478 000:774.296 JLINK_WriteReg(R4, 0x00000000)
T2478 000:774.306 - 0.014ms returns 0
T2478 000:774.316 JLINK_WriteReg(R5, 0x00000000)
T2478 000:774.326 - 0.014ms returns 0
T2478 000:774.336 JLINK_WriteReg(R6, 0x00000000)
T2478 000:774.346 - 0.014ms returns 0
T2478 000:774.356 JLINK_WriteReg(R7, 0x00000000)
T2478 000:774.366 - 0.015ms returns 0
T2478 000:774.377 JLINK_WriteReg(R8, 0x00000000)
T2478 000:774.387 - 0.014ms returns 0
T2478 000:774.397 JLINK_WriteReg(R9, 0x180000C8)
T2478 000:774.407 - 0.014ms returns 0
T2478 000:774.417 JLINK_WriteReg(R10, 0x00000000)
T2478 000:774.428 - 0.014ms returns 0
T2478 000:774.438 JLINK_WriteReg(R11, 0x00000000)
T2478 000:774.448 - 0.015ms returns 0
T2478 000:774.459 JLINK_WriteReg(R12, 0x00000000)
T2478 000:774.469 - 0.014ms returns 0
T2478 000:774.479 JLINK_WriteReg(R13 (SP), 0x18001000)
T2478 000:774.489 - 0.015ms returns 0
T2478 000:774.500 JLINK_WriteReg(R14, 0x18000001)
T2478 000:774.510 - 0.014ms returns 0
T2478 000:774.520 JLINK_WriteReg(R15 (PC), 0x18000082)
T2478 000:774.530 - 0.014ms returns 0
T2478 000:774.540 JLINK_WriteReg(XPSR, 0x01000000)
T2478 000:774.550 - 0.015ms returns 0
T2478 000:774.561 JLINK_WriteReg(MSP, 0x18001000)
T2478 000:774.571 - 0.014ms returns 0
T2478 000:774.581 JLINK_WriteReg(PSP, 0x18001000)
T2478 000:774.591 - 0.014ms returns 0
T2478 000:774.601 JLINK_WriteReg(CFBP, 0x00000000)
T2478 000:774.611 - 0.014ms returns 0
T2478 000:774.622 JLINK_SetBPEx(Addr = 0x18000000, Type = 0xFFFFFFF2)
T2478 000:774.633 - 0.015ms returns 0x0000000D
T2478 000:774.643 JLINK_Go()
T2478 000:774.658   CPU_WriteMem(4 bytes @ 0xE0002000)
T2478 000:774.948   CPU_ReadMem(4 bytes @ 0xE0001000)
T2478 000:775.234   CPU_WriteMem(4 bytes @ 0xE0001000)
T2478 000:777.456 - 2.849ms
T2478 000:777.521 JLINK_IsHalted()
T2478 000:777.843 - 0.351ms returns FALSE
T2478 000:777.899 JLINK_HasError()
T2478 000:782.059 JLINK_IsHalted()
T2478 000:784.071 - 2.042ms returns TRUE
T2478 000:784.123 JLINK_ReadReg(R15 (PC))
T2478 000:784.157 - 0.047ms returns 0x18000000
T2478 000:784.187 JLINK_ClrBPEx(BPHandle = 0x0000000D)
T2478 000:784.216 - 0.038ms returns 0x00
T2478 000:784.233 JLINK_ReadReg(R0)
T2478 000:784.243 - 0.015ms returns 0x00000000
T2478 000:784.726 JLINK_HasError()
T2478 000:784.745 JLINK_WriteReg(R0, 0x11004000)
T2478 000:784.757 - 0.017ms returns 0
T2478 000:784.768 JLINK_WriteReg(R1, 0x00001000)
T2478 000:784.778 - 0.015ms returns 0
T2478 000:784.788 JLINK_WriteReg(R2, 0x000000FF)
T2478 000:784.798 - 0.014ms returns 0
T2478 000:784.809 JLINK_WriteReg(R3, 0x00000000)
T2478 000:784.819 - 0.014ms returns 0
T2478 000:784.829 JLINK_WriteReg(R4, 0x00000000)
T2478 000:784.839 - 0.014ms returns 0
T2478 000:784.849 JLINK_WriteReg(R5, 0x00000000)
T2478 000:784.859 - 0.014ms returns 0
T2478 000:784.870 JLINK_WriteReg(R6, 0x00000000)
T2478 000:784.880 - 0.018ms returns 0
T2478 000:784.896 JLINK_WriteReg(R7, 0x00000000)
T2478 000:784.906 - 0.014ms returns 0
T2478 000:784.917 JLINK_WriteReg(R8, 0x00000000)
T2478 000:784.927 - 0.014ms returns 0
T2478 000:784.937 JLINK_WriteReg(R9, 0x180000C8)
T2478 000:784.947 - 0.014ms returns 0
T2478 000:784.957 JLINK_WriteReg(R10, 0x00000000)
T2478 000:784.967 - 0.014ms returns 0
T2478 000:784.977 JLINK_WriteReg(R11, 0x00000000)
T2478 000:784.987 - 0.014ms returns 0
T2478 000:784.997 JLINK_WriteReg(R12, 0x00000000)
T2478 000:785.007 - 0.014ms returns 0
T2478 000:785.017 JLINK_WriteReg(R13 (SP), 0x18001000)
T2478 000:785.028 - 0.015ms returns 0
T2478 000:785.038 JLINK_WriteReg(R14, 0x18000001)
T2478 000:785.049 - 0.016ms returns 0
T2478 000:785.060 JLINK_WriteReg(R15 (PC), 0x180000A4)
T2478 000:785.070 - 0.015ms returns 0
T2478 000:785.081 JLINK_WriteReg(XPSR, 0x01000000)
T2478 000:785.091 - 0.015ms returns 0
T2478 000:785.101 JLINK_WriteReg(MSP, 0x18001000)
T2478 000:785.111 - 0.016ms returns 0
T2478 000:785.130 JLINK_WriteReg(PSP, 0x18001000)
T2478 000:785.160 - 0.044ms returns 0
T2478 000:785.190 JLINK_WriteReg(CFBP, 0x00000000)
T2478 000:785.218 - 0.041ms returns 0
T2478 000:785.248 JLINK_SetBPEx(Addr = 0x18000000, Type = 0xFFFFFFF2)
T2478 000:785.279 - 0.044ms returns 0x0000000E
T2478 000:785.308 JLINK_Go()
T2478 000:785.345   CPU_WriteMem(4 bytes @ 0xE0002000)
T2478 000:785.711   CPU_ReadMem(4 bytes @ 0xE0001000)
T2478 000:786.089   CPU_WriteMem(4 bytes @ 0xE0001000)
T2478 000:788.165 - 2.867ms
T2478 000:788.184 JLINK_IsHalted()
T2478 000:790.062 - 1.927ms returns TRUE
T2478 000:790.135 JLINK_ReadReg(R15 (PC))
T2478 000:790.170 - 0.049ms returns 0x18000000
T2478 000:790.201 JLINK_ClrBPEx(BPHandle = 0x0000000E)
T2478 000:790.230 - 0.043ms returns 0x00
T2478 000:790.260 JLINK_ReadReg(R0)
T2478 000:790.288 - 0.042ms returns 0x00000001
T2478 000:790.319 JLINK_HasError()
T2478 000:790.350 JLINK_WriteReg(R0, 0x11004000)
T2478 000:790.379 - 0.043ms returns 0
T2478 000:790.408 JLINK_WriteReg(R1, 0x00001000)
T2478 000:790.436 - 0.041ms returns 0
T2478 000:790.466 JLINK_WriteReg(R2, 0x000000FF)
T2478 000:790.494 - 0.041ms returns 0
T2478 000:790.523 JLINK_WriteReg(R3, 0x00000000)
T2478 000:790.551 - 0.042ms returns 0
T2478 000:790.581 JLINK_WriteReg(R4, 0x00000000)
T2478 000:790.609 - 0.041ms returns 0
T2478 000:790.638 JLINK_WriteReg(R5, 0x00000000)
T2478 000:790.667 - 0.043ms returns 0
T2478 000:790.697 JLINK_WriteReg(R6, 0x00000000)
T2478 000:790.725 - 0.041ms returns 0
T2478 000:790.754 JLINK_WriteReg(R7, 0x00000000)
T2478 000:790.782 - 0.041ms returns 0
T2478 000:790.811 JLINK_WriteReg(R8, 0x00000000)
T2478 000:790.839 - 0.041ms returns 0
T2478 000:790.869 JLINK_WriteReg(R9, 0x180000C8)
T2478 000:790.897 - 0.041ms returns 0
T2478 000:790.926 JLINK_WriteReg(R10, 0x00000000)
T2478 000:790.954 - 0.041ms returns 0
T2478 000:790.983 JLINK_WriteReg(R11, 0x00000000)
T2478 000:791.011 - 0.041ms returns 0
T2478 000:791.042 JLINK_WriteReg(R12, 0x00000000)
T2478 000:791.070 - 0.041ms returns 0
T2478 000:791.099 JLINK_WriteReg(R13 (SP), 0x18001000)
T2478 000:791.130 - 0.043ms returns 0
T2478 000:791.159 JLINK_WriteReg(R14, 0x18000001)
T2478 000:791.187 - 0.041ms returns 0
T2478 000:791.216 JLINK_WriteReg(R15 (PC), 0x18000082)
T2478 000:791.244 - 0.041ms returns 0
T2478 000:791.273 JLINK_WriteReg(XPSR, 0x01000000)
T2478 000:791.302 - 0.041ms returns 0
T2478 000:791.331 JLINK_WriteReg(MSP, 0x18001000)
T2478 000:791.359 - 0.041ms returns 0
T2478 000:791.388 JLINK_WriteReg(PSP, 0x18001000)
T2478 000:791.416 - 0.041ms returns 0
T2478 000:791.445 JLINK_WriteReg(CFBP, 0x00000000)
T2478 000:791.473 - 0.041ms returns 0
T2478 000:791.502 JLINK_SetBPEx(Addr = 0x18000000, Type = 0xFFFFFFF2)
T2478 000:791.532 - 0.044ms returns 0x0000000F
T2478 000:791.562 JLINK_Go()
T2478 000:791.599   CPU_WriteMem(4 bytes @ 0xE0002000)
T2478 000:792.030   CPU_ReadMem(4 bytes @ 0xE0001000)
T2478 000:792.414   CPU_WriteMem(4 bytes @ 0xE0001000)
T2478 000:794.491 - 2.944ms
T2478 000:794.515 JLINK_IsHalted()
T2478 000:794.761 - 0.256ms returns FALSE
T2478 000:794.780 JLINK_HasError()
T2478 000:796.058 JLINK_IsHalted()
T2478 000:796.420 - 0.404ms returns FALSE
T2478 000:796.488 JLINK_HasError()
T2478 000:798.063 JLINK_IsHalted()
T2478 000:799.956 - 1.905ms returns TRUE
T2478 000:799.976 JLINK_ReadReg(R15 (PC))
T2478 000:799.989 - 0.017ms returns 0x18000000
T2478 000:800.000 JLINK_ClrBPEx(BPHandle = 0x0000000F)
T2478 000:800.011 - 0.015ms returns 0x00
T2478 000:800.021 JLINK_ReadReg(R0)
T2478 000:800.031 - 0.015ms returns 0x00000000
T2478 000:800.588 JLINK_HasError()
T2478 000:800.607 JLINK_WriteReg(R0, 0x11005000)
T2478 000:800.619 - 0.017ms returns 0
T2478 000:800.631 JLINK_WriteReg(R1, 0x00001000)
T2478 000:800.641 - 0.015ms returns 0
T2478 000:800.651 JLINK_WriteReg(R2, 0x000000FF)
T2478 000:800.661 - 0.014ms returns 0
T2478 000:800.672 JLINK_WriteReg(R3, 0x00000000)
T2478 000:800.682 - 0.014ms returns 0
T2478 000:800.692 JLINK_WriteReg(R4, 0x00000000)
T2478 000:800.702 - 0.014ms returns 0
T2478 000:800.712 JLINK_WriteReg(R5, 0x00000000)
T2478 000:800.722 - 0.014ms returns 0
T2478 000:800.733 JLINK_WriteReg(R6, 0x00000000)
T2478 000:800.743 - 0.014ms returns 0
T2478 000:800.753 JLINK_WriteReg(R7, 0x00000000)
T2478 000:800.763 - 0.014ms returns 0
T2478 000:800.773 JLINK_WriteReg(R8, 0x00000000)
T2478 000:800.783 - 0.014ms returns 0
T2478 000:800.793 JLINK_WriteReg(R9, 0x180000C8)
T2478 000:800.803 - 0.014ms returns 0
T2478 000:800.813 JLINK_WriteReg(R10, 0x00000000)
T2478 000:800.823 - 0.014ms returns 0
T2478 000:800.834 JLINK_WriteReg(R11, 0x00000000)
T2478 000:800.844 - 0.014ms returns 0
T2478 000:800.854 JLINK_WriteReg(R12, 0x00000000)
T2478 000:800.864 - 0.014ms returns 0
T2478 000:800.874 JLINK_WriteReg(R13 (SP), 0x18001000)
T2478 000:800.884 - 0.015ms returns 0
T2478 000:800.895 JLINK_WriteReg(R14, 0x18000001)
